
T4524 1283:835 SEGGER J-Link V4.58a Log File (0036ms, 0319ms total)
T4524 1283:835 DLL Compiled: Dec  5 2012 18:38:08 (0036ms, 0319ms total)
T4524 1283:835 Logging started @ 2023-04-27 14:39 (0036ms, 0319ms total)
T4524 1283:871 JLINK_SetWarnOutHandler(...) (0001ms, 0320ms total)
T4524 1283:872 JLINK_OpenEx(...)
Firmware: J-Link ARM-OB STM32 compiled Aug 22 2012 19:52:04
Hardware: V7.00
S/N: 20090928
Feature(s): RDI,FlashDL,FlashBP,JFlash,GDBFull  returns O.K. (0013ms, 0333ms total)
T4524 1283:885 JLINK_GetEmuCaps()  returns 0x88EA5833 (0000ms, 0333ms total)
T4524 1283:885 JLINK_TIF_GetAvailable(...) (0000ms, 0333ms total)
T4524 1283:885 JLINK_SetErrorOutHandler(...) (0000ms, 0333ms total)
T4524 1283:885 JLINK_ExecCommand("ProjectFile = "D:\QRS\project\cao_go\JLinkSettings.ini"", ...)  returns 0x00 (0014ms, 0347ms total)
T4524 1283:907 JLINK_ExecCommand("Device = STM32F103C8", ...)
                JLINK_ExecCommand("map ram 0x20000000 - 0x20004FFF", ...)  returns 0x00 (0000ms, 0000ms total)
                JLINK_AddMirrorAreaEx(Addr = 0x00000000, Size = 0x00000000) (0000ms, 0000ms total)
              Device "STM32F103C8" selected (64 KB flash, 20 KB RAM).  returns 0x00 (0015ms, 0362ms total)
T4524 1283:922 JLINK_ExecCommand("DisableConnectionTimeout", ...)  returns 0x00 (0000ms, 0362ms total)
T4524 1283:922 JLINK_GetHardwareVersion()  returns 0x11170 (0000ms, 0362ms total)
T4524 1283:922 JLINK_GetDLLVersion()  returns 45801 (0000ms, 0362ms total)
T4524 1283:922 JLINK_GetFirmwareString(...) (0000ms, 0362ms total)
T4524 1283:932 JLINK_GetDLLVersion()  returns 45801 (0000ms, 0362ms total)
T4524 1283:932 JLINK_GetCompileDateTime() (0000ms, 0362ms total)
T4524 1283:935 JLINK_GetFirmwareString(...) (0000ms, 0362ms total)
T4524 1283:937 JLINK_GetHardwareVersion()  returns 0x11170 (0000ms, 0362ms total)
T4524 1283:943 JLINK_TIF_Select(JLINKARM_TIF_SWD)  returns 0x00 (0002ms, 0364ms total)
T4524 1283:945 JLINK_SetSpeed(5000) (0000ms, 0364ms total)
T4524 1283:945 JLINK_GetId() >0x108 TIF>Found SWD-DP with ID 0x1BA01477 >0x0D TIF> >0x28 TIF> >0x0D TIF> >0x28 TIF> >0x0D TIF> >0x21 TIF> >0x0D TIF> >0x28 TIF> >0x0D TIF> >0x28 TIF> >0x0D TIF> >0x28 TIF> >0x0D TIF> >0x21 TIF> >0x0D TIF> >0x21 TIF> >0x0D TIF> >0x28 TIF> >0x0D TIF> >0x21 TIF> >0x0D TIF> >0x21 TIF> >0x0D TIF> >0x28 TIF> >0x0D TIF> >0x28 TIF> >0x108 TIF>Found SWD-DP with ID 0x1BA01477 >0x0D TIF> >0x21 TIF> >0x0D TIF> >0x28 TIF> >0x0D TIF> >0x28 TIF> >0x0D TIF> >0x21 TIF> >0x0D TIF>
 >0x21 TIF> >0x0D TIF> >0x28 TIF> >0x0D TIF> >0x21 TIF> >0x0D TIF> >0x21 TIF> >0x0D TIF> >0x21 TIF> >0x0D TIF> >0x21 TIF> >0x0D TIF> >0x21 TIF> >0x0D TIF> >0x28 TIF> >0x0D TIF> >0x28 TIF> >0x0D TIF> >0x21 TIF> >0x0D TIF> >0x21 TIF> >0x0D TIF> >0x28 TIF> >0x0D TIF> >0x21 TIF> >0x0D TIF> >0x21 TIF> >0x0D TIF> >0x28 TIF> >0x0D TIF> >0x28 TIF> >0x0D TIF> >0x28 TIF> >0x0D TIF> >0x21 TIF> >0x0D TIF> >0x21 TIF> >0x0D TIF> >0x28 TIF> >0x0D TIF> >0x28 TIF> >0x0D TIF> >0x28 TIF> >0x0D TIF> >0x28 TIF> >0x0D TIF>
 >0x28 TIF> >0x0D TIF> >0x21 TIF> >0x0D TIF> >0x21 TIF> >0x0D TIF> >0x21 TIF>TPIU fitted. >0x0D TIF> >0x28 TIF> >0x0D TIF> >0x21 TIF> >0x0D TIF> >0x21 TIF> >0x0D TIF> >0x28 TIF> >0x0D TIF> >0x21 TIF> >0x0D TIF> >0x21 TIF>FPUnit: 6 code (BP) slots and 2 literal slots >0x0D TIF> >0x28 TIF> >0x0D TIF> >0x21 TIF> >0x0D TIF> >0x21 TIF> >0x0D TIF> >0x28 TIF> >0x0D TIF> >0x28 TIF> >0x0D TIF> >0x28 TIF> >0x0D TIF> >0x21 TIF> >0x0D TIF> >0x21 TIF> >0x0D TIF> >0x28 TIF> >0x0D TIF> >0x21 TIF> >0x0D TIF> >0x21 TIF>
 >0x0D TIF> >0x28 TIF> >0x0D TIF> >0x21 TIF> >0x0D TIF> >0x21 TIF>Found Cortex-M3 r2p1, Little endian. >0x0D TIF> >0x21 TIF>  returns 0x1BA01477 (0035ms, 0399ms total)
T4524 1283:980 JLINK_GetDLLVersion()  returns 45801 (0000ms, 0399ms total)
T4524 1283:980 JLINK_CORE_GetFound()  returns 0x30000FF (0000ms, 0399ms total)
T4524 1283:983 JLINK_GetDebugInfo(0x100) -- Value=0xE00FF003  returns 0x00 (0000ms, 0399ms total)
T4524 1283:983 JLINK_GetDebugInfo(0x101)  returns 0xFFFFFFFF (0000ms, 0399ms total)
T4524 1283:983 JLINK_ReadMemEx(0xE0041FF0, 0x0010 Bytes, ..., AccessWidth = 33554436) -- CPU is running -- CPU_ReadMem(16 bytes @ 0xE0041FF0) -- Data:  00 00 00 00 00 00 00 00 00 00 00 00 00 00 00 00  returns 0x10 (0001ms, 0400ms total)
T4524 1283:984 JLINK_GetDebugInfo(0x102)  returns 0xFFFFFFFF (0000ms, 0400ms total)
T4524 1283:984 JLINK_GetDebugInfo(0x103)  returns 0xFFFFFFFF (0000ms, 0400ms total)
T4524 1283:984 JLINK_ReadMemEx(0xE0040FF0, 0x0010 Bytes, ..., AccessWidth = 33554436) -- CPU is running -- CPU_ReadMem(16 bytes @ 0xE0040FF0) -- Data:  0D 00 00 00 90 00 00 00 05 00 00 00 B1 00 00 00  returns 0x10 (0000ms, 0400ms total)
T4524 1283:984 JLINK_GetDebugInfo(0x104)  returns 0xFFFFFFFF (0000ms, 0400ms total)
T4524 1283:984 JLINK_GetDebugInfo(0x105)  returns 0xFFFFFFFF (0000ms, 0400ms total)
T4524 1283:984 JLINK_GetDebugInfo(0x106)  returns 0xFFFFFFFF (0000ms, 0400ms total)
T4524 1283:984 JLINK_GetDebugInfo(0x107)  returns 0xFFFFFFFF (0001ms, 0401ms total)
T4524 1283:985 JLINK_GetDebugInfo(0x10C)  returns 0xFFFFFFFF (0000ms, 0401ms total)
T4524 1283:985 JLINK_GetDebugInfo(0x01)  returns 0xFFFFFFFF (0000ms, 0401ms total)
T4524 1283:985 JLINK_GetDeviceFamily()  returns 3 (0000ms, 0401ms total)
T4524 1283:985 JLINK_ReadMemU32(0xE000ED00, 0x0001 Items, ...) -- CPU is running -- CPU_ReadMem(4 bytes @ 0xE000ED00) -- Data:  31 C2 2F 41  returns 0x01 (0001ms, 0402ms total)
T4524 1283:986 JLINK_GetDebugInfo(0x10F)  returns 0xFFFFFFFF (0000ms, 0402ms total)
T4524 1283:986 JLINK_SetResetType(JLINKARM_RESET_TYPE_NORMAL)  returns JLINKARM_RESET_TYPE_NORMAL (0000ms, 0402ms total)
T4524 1283:986 JLINK_Reset() -- CPU is running -- CPU_WriteMem(4 bytes @ 0xE000EDF0) -- CPU is running -- CPU_WriteMem(4 bytes @ 0xE000EDFC) >0x35 TIF> -- CPU is running -- CPU_WriteMem(4 bytes @ 0xE000ED0C) -- CPU is running -- CPU_ReadMem(4 bytes @ 0xE000EDF0) -- CPU is running -- CPU_ReadMem(4 bytes @ 0xE000EDF0) -- CPU is running -- CPU_WriteMem(4 bytes @ 0xE000EDF0) -- CPU is running -- CPU_WriteMem(4 bytes @ 0xE000EDFC) -- CPU is running -- CPU_ReadMem(4 bytes @ 0xE000EDF0)
 -- CPU_WriteMem(4 bytes @ 0xE0002000) (0016ms, 0418ms total)
T4524 1284:002 JLINK_Halt()  returns 0x00 (0000ms, 0418ms total)
T4524 1284:002 JLINK_ReadMemU32(0xE000EDF0, 0x0001 Items, ...) -- CPU_ReadMem(4 bytes @ 0xE000EDF0) -- Data:  03 00 03 00  returns 0x01 (0001ms, 0419ms total)
T4524 1284:003 JLINK_WriteU32(0xE000EDF0, 0xA05F0003) -- CPU_WriteMem(4 bytes @ 0xE000EDF0)  returns 0x00 (0000ms, 0419ms total)
T4524 1284:003 JLINK_WriteU32(0xE000EDFC, 0x01000000) -- CPU_WriteMem(4 bytes @ 0xE000EDFC)  returns 0x00 (0001ms, 0420ms total)
T4524 1284:020 JLINK_GetHWStatus(...)  returns 0x00 (0000ms, 0420ms total)
T4524 1284:030 JLINK_GetNumBPUnits(Type = 0xFFFFFF00)  returns 0x06 (0000ms, 0420ms total)
T4524 1284:030 JLINK_GetNumBPUnits(Type = 0xF0)  returns 0x2000 (0000ms, 0420ms total)
T4524 1284:030 JLINK_GetNumWPUnits()  returns 0x04 (0000ms, 0420ms total)
T4524 1284:042 JLINK_GetSpeed()  returns 0xFA0 (0000ms, 0420ms total)
T4524 1284:052 JLINK_ReadMemU32(0xE000E004, 0x0001 Items, ...) -- CPU_ReadMem(4 bytes @ 0xE000E004) -- Data:  01 00 00 00  returns 0x01 (0000ms, 0420ms total)
T4524 1284:052 JLINK_ReadMemU32(0xE000E004, 0x0001 Items, ...) -- CPU_ReadMem(4 bytes @ 0xE000E004) -- Data:  01 00 00 00  returns 0x01 (0001ms, 0421ms total)
T4524 1284:053 JLINK_WriteMemEx(0xE0001000, 0x001C Bytes, ..., AccessWidth = 33554436) -- Data:  01 00 00 00 00 00 00 00 00 00 00 00 00 00 00 00 ... -- CPU_WriteMem(28 bytes @ 0xE0001000)  returns 0x1C (0001ms, 0422ms total)
T4524 1284:054 JLINK_Halt()  returns 0x00 (0000ms, 0422ms total)
T4524 1284:054 JLINK_IsHalted()  returns TRUE (0000ms, 0422ms total)
T4524 1284:102 JLINK_WriteMem(0x20000000, 0x0164 Bytes, ...) -- Data:  00 BE 0A E0 0D 78 2D 06 68 40 08 24 40 00 00 D3 ... -- CPU_WriteMem(356 bytes @ 0x20000000)  returns 0x164 (0004ms, 0426ms total)
T4524 1284:106 JLINK_WriteReg(R0, 0x08000000)  returns 0x00 (0000ms, 0426ms total)
T4524 1284:106 JLINK_WriteReg(R1, 0x00B71B00)  returns 0x00 (0000ms, 0426ms total)
T4524 1284:106 JLINK_WriteReg(R2, 0x00000001)  returns 0x00 (0000ms, 0426ms total)
T4524 1284:106 JLINK_WriteReg(R3, 0x00000000)  returns 0x00 (0000ms, 0426ms total)
T4524 1284:106 JLINK_WriteReg(R4, 0x00000000)  returns 0x00 (0000ms, 0426ms total)
T4524 1284:106 JLINK_WriteReg(R5, 0x00000000)  returns 0x00 (0000ms, 0426ms total)
T4524 1284:106 JLINK_WriteReg(R6, 0x00000000)  returns 0x00 (0000ms, 0426ms total)
T4524 1284:106 JLINK_WriteReg(R7, 0x00000000)  returns 0x00 (0000ms, 0426ms total)
T4524 1284:106 JLINK_WriteReg(R8, 0x00000000)  returns 0x00 (0000ms, 0426ms total)
T4524 1284:106 JLINK_WriteReg(R9, 0x20000160)  returns 0x00 (0000ms, 0426ms total)
T4524 1284:106 JLINK_WriteReg(R10, 0x00000000)  returns 0x00 (0000ms, 0426ms total)
T4524 1284:106 JLINK_WriteReg(R11, 0x00000000)  returns 0x00 (0000ms, 0426ms total)
T4524 1284:106 JLINK_WriteReg(R12, 0x00000000)  returns 0x00 (0000ms, 0426ms total)
T4524 1284:106 JLINK_WriteReg(R13, 0x20001000)  returns 0x00 (0000ms, 0426ms total)
T4524 1284:106 JLINK_WriteReg(R14, 0x20000001)  returns 0x00 (0000ms, 0426ms total)
T4524 1284:106 JLINK_WriteReg(R15, 0x20000038)  returns 0x00 (0000ms, 0426ms total)
T4524 1284:106 JLINK_WriteReg(XPSR, 0x01000000)  returns 0x00 (0000ms, 0426ms total)
T4524 1284:106 JLINK_WriteReg(MSP, 0x20001000)  returns 0x00 (0000ms, 0426ms total)
T4524 1284:106 JLINK_WriteReg(PSP, 0x20001000)  returns 0x00 (0000ms, 0426ms total)
T4524 1284:106 JLINK_WriteReg(CFBP, 0x00000000)  returns 0x00 (0000ms, 0426ms total)
T4524 1284:106 JLINK_SetBPEx(Addr = 0x20000000, Type = 0xFFFFFFF2) -- CPU_ReadMem(2 bytes @ 0x20000000)  returns 0x00000001 (0001ms, 0427ms total)
T4524 1284:107 JLINK_Go() -- CPU_WriteMem(2 bytes @ 0x20000000) -- CPU_WriteMem(4 bytes @ 0xE0002008) -- CPU_WriteMem(4 bytes @ 0xE000200C) -- CPU_WriteMem(4 bytes @ 0xE0002010) -- CPU_WriteMem(4 bytes @ 0xE0002014) -- CPU_WriteMem(4 bytes @ 0xE0002018) -- CPU_WriteMem(4 bytes @ 0xE000201C) (0005ms, 0432ms total)
T4524 1284:112 JLINK_IsHalted() -- CPU_ReadMem(2 bytes @ 0x20000000)  returns TRUE (0004ms, 0436ms total)
T4524 1284:116 JLINK_ReadReg(R15)  returns 0x20000000 (0000ms, 0432ms total)
T4524 1284:116 JLINK_ClrBPEx(BPHandle = 0x00000001)  returns 0x00 (0000ms, 0432ms total)
T4524 1284:116 JLINK_ReadReg(R0)  returns 0x00000000 (0000ms, 0432ms total)
T4524 1284:117 JLINK_WriteReg(R0, 0x08000000)  returns 0x00 (0000ms, 0432ms total)
T4524 1284:117 JLINK_WriteReg(R1, 0x00000400)  returns 0x00 (0000ms, 0432ms total)
T4524 1284:117 JLINK_WriteReg(R2, 0x000000FF)  returns 0x00 (0000ms, 0432ms total)
T4524 1284:117 JLINK_WriteReg(R3, 0x00000000)  returns 0x00 (0000ms, 0432ms total)
T4524 1284:117 JLINK_WriteReg(R4, 0x00000000)  returns 0x00 (0000ms, 0432ms total)
T4524 1284:117 JLINK_WriteReg(R5, 0x00000000)  returns 0x00 (0000ms, 0432ms total)
T4524 1284:117 JLINK_WriteReg(R6, 0x00000000)  returns 0x00 (0000ms, 0432ms total)
T4524 1284:117 JLINK_WriteReg(R7, 0x00000000)  returns 0x00 (0000ms, 0432ms total)
T4524 1284:117 JLINK_WriteReg(R8, 0x00000000)  returns 0x00 (0000ms, 0432ms total)
T4524 1284:117 JLINK_WriteReg(R9, 0x20000160)  returns 0x00 (0000ms, 0432ms total)
T4524 1284:117 JLINK_WriteReg(R10, 0x00000000)  returns 0x00 (0000ms, 0432ms total)
T4524 1284:117 JLINK_WriteReg(R11, 0x00000000)  returns 0x00 (0000ms, 0432ms total)
T4524 1284:117 JLINK_WriteReg(R12, 0x00000000)  returns 0x00 (0000ms, 0432ms total)
T4524 1284:117 JLINK_WriteReg(R13, 0x20001000)  returns 0x00 (0000ms, 0432ms total)
T4524 1284:117 JLINK_WriteReg(R14, 0x20000001)  returns 0x00 (0000ms, 0432ms total)
T4524 1284:117 JLINK_WriteReg(R15, 0x20000020)  returns 0x00 (0000ms, 0432ms total)
T4524 1284:117 JLINK_WriteReg(XPSR, 0x01000000)  returns 0x00 (0000ms, 0432ms total)
T4524 1284:117 JLINK_WriteReg(MSP, 0x20001000)  returns 0x00 (0000ms, 0432ms total)
T4524 1284:117 JLINK_WriteReg(PSP, 0x20001000)  returns 0x00 (0000ms, 0432ms total)
T4524 1284:117 JLINK_WriteReg(CFBP, 0x00000000)  returns 0x00 (0000ms, 0432ms total)
T4524 1284:117 JLINK_SetBPEx(Addr = 0x20000000, Type = 0xFFFFFFF2)  returns 0x00000002 (0000ms, 0432ms total)
T4524 1284:117 JLINK_Go() (0002ms, 0434ms total)
T4524 1284:119 JLINK_IsHalted() -- CPU_ReadMem(2 bytes @ 0x20000000)  returns TRUE (0003ms, 0437ms total)
T4524 1284:122 JLINK_ReadReg(R15)  returns 0x20000000 (0000ms, 0434ms total)
T4524 1284:122 JLINK_ClrBPEx(BPHandle = 0x00000002)  returns 0x00 (0000ms, 0434ms total)
T4524 1284:122 JLINK_ReadReg(R0)  returns 0x00000001 (0000ms, 0434ms total)
T4524 1284:122 JLINK_WriteReg(R0, 0x08000000)  returns 0x00 (0000ms, 0434ms total)
T4524 1284:122 JLINK_WriteReg(R1, 0x00000400)  returns 0x00 (0000ms, 0434ms total)
T4524 1284:122 JLINK_WriteReg(R2, 0x000000FF)  returns 0x00 (0000ms, 0434ms total)
T4524 1284:122 JLINK_WriteReg(R3, 0x00000000)  returns 0x00 (0000ms, 0434ms total)
T4524 1284:122 JLINK_WriteReg(R4, 0x00000000)  returns 0x00 (0000ms, 0434ms total)
T4524 1284:122 JLINK_WriteReg(R5, 0x00000000)  returns 0x00 (0000ms, 0434ms total)
T4524 1284:122 JLINK_WriteReg(R6, 0x00000000)  returns 0x00 (0000ms, 0434ms total)
T4524 1284:122 JLINK_WriteReg(R7, 0x00000000)  returns 0x00 (0000ms, 0434ms total)
T4524 1284:122 JLINK_WriteReg(R8, 0x00000000)  returns 0x00 (0000ms, 0434ms total)
T4524 1284:122 JLINK_WriteReg(R9, 0x20000160)  returns 0x00 (0000ms, 0434ms total)
T4524 1284:122 JLINK_WriteReg(R10, 0x00000000)  returns 0x00 (0000ms, 0434ms total)
T4524 1284:122 JLINK_WriteReg(R11, 0x00000000)  returns 0x00 (0000ms, 0434ms total)
T4524 1284:122 JLINK_WriteReg(R12, 0x00000000)  returns 0x00 (0000ms, 0434ms total)
T4524 1284:122 JLINK_WriteReg(R13, 0x20001000)  returns 0x00 (0001ms, 0435ms total)
T4524 1284:123 JLINK_WriteReg(R14, 0x20000001)  returns 0x00 (0000ms, 0435ms total)
T4524 1284:123 JLINK_WriteReg(R15, 0x200000B6)  returns 0x00 (0000ms, 0435ms total)
T4524 1284:123 JLINK_WriteReg(XPSR, 0x01000000)  returns 0x00 (0000ms, 0435ms total)
T4524 1284:123 JLINK_WriteReg(MSP, 0x20001000)  returns 0x00 (0000ms, 0435ms total)
T4524 1284:123 JLINK_WriteReg(PSP, 0x20001000)  returns 0x00 (0000ms, 0435ms total)
T4524 1284:123 JLINK_WriteReg(CFBP, 0x00000000)  returns 0x00 (0000ms, 0435ms total)
T4524 1284:123 JLINK_SetBPEx(Addr = 0x20000000, Type = 0xFFFFFFF2)  returns 0x00000003 (0000ms, 0435ms total)
T4524 1284:123 JLINK_Go() (0001ms, 0436ms total)
T4524 1284:124 JLINK_IsHalted()  returns FALSE (0000ms, 0436ms total)
T4524 1284:157 JLINK_IsHalted()  returns FALSE (0000ms, 0436ms total)
T4524 1284:159 JLINK_IsHalted()  returns FALSE (0000ms, 0436ms total)
T4524 1284:161 JLINK_IsHalted() -- CPU_ReadMem(2 bytes @ 0x20000000)  returns TRUE (0003ms, 0439ms total)
T4524 1284:164 JLINK_ReadReg(R15)  returns 0x20000000 (0000ms, 0436ms total)
T4524 1284:164 JLINK_ClrBPEx(BPHandle = 0x00000003)  returns 0x00 (0000ms, 0436ms total)
T4524 1284:164 JLINK_ReadReg(R0)  returns 0x00000000 (0000ms, 0436ms total)
T4524 1284:165 JLINK_WriteReg(R0, 0x08000400)  returns 0x00 (0000ms, 0436ms total)
T4524 1284:165 JLINK_WriteReg(R1, 0x00000400)  returns 0x00 (0000ms, 0436ms total)
T4524 1284:166 JLINK_WriteReg(R2, 0x000000FF)  returns 0x00 (0000ms, 0436ms total)
T4524 1284:166 JLINK_WriteReg(R3, 0x00000000)  returns 0x00 (0000ms, 0436ms total)
T4524 1284:166 JLINK_WriteReg(R4, 0x00000000)  returns 0x00 (0000ms, 0436ms total)
T4524 1284:166 JLINK_WriteReg(R5, 0x00000000)  returns 0x00 (0000ms, 0436ms total)
T4524 1284:166 JLINK_WriteReg(R6, 0x00000000)  returns 0x00 (0000ms, 0436ms total)
T4524 1284:166 JLINK_WriteReg(R7, 0x00000000)  returns 0x00 (0000ms, 0436ms total)
T4524 1284:166 JLINK_WriteReg(R8, 0x00000000)  returns 0x00 (0000ms, 0436ms total)
T4524 1284:166 JLINK_WriteReg(R9, 0x20000160)  returns 0x00 (0000ms, 0436ms total)
T4524 1284:166 JLINK_WriteReg(R10, 0x00000000)  returns 0x00 (0000ms, 0436ms total)
T4524 1284:166 JLINK_WriteReg(R11, 0x00000000)  returns 0x00 (0000ms, 0436ms total)
T4524 1284:166 JLINK_WriteReg(R12, 0x00000000)  returns 0x00 (0000ms, 0436ms total)
T4524 1284:166 JLINK_WriteReg(R13, 0x20001000)  returns 0x00 (0000ms, 0436ms total)
T4524 1284:166 JLINK_WriteReg(R14, 0x20000001)  returns 0x00 (0000ms, 0436ms total)
T4524 1284:166 JLINK_WriteReg(R15, 0x20000020)  returns 0x00 (0000ms, 0436ms total)
T4524 1284:166 JLINK_WriteReg(XPSR, 0x01000000)  returns 0x00 (0000ms, 0436ms total)
T4524 1284:166 JLINK_WriteReg(MSP, 0x20001000)  returns 0x00 (0000ms, 0436ms total)
T4524 1284:166 JLINK_WriteReg(PSP, 0x20001000)  returns 0x00 (0000ms, 0436ms total)
T4524 1284:166 JLINK_WriteReg(CFBP, 0x00000000)  returns 0x00 (0000ms, 0436ms total)
T4524 1284:166 JLINK_SetBPEx(Addr = 0x20000000, Type = 0xFFFFFFF2)  returns 0x00000004 (0000ms, 0436ms total)
T4524 1284:166 JLINK_Go() (0001ms, 0437ms total)
T4524 1284:167 JLINK_IsHalted() -- CPU_ReadMem(2 bytes @ 0x20000000)  returns TRUE (0005ms, 0442ms total)
T4524 1284:172 JLINK_ReadReg(R15)  returns 0x20000000 (0000ms, 0437ms total)
T4524 1284:172 JLINK_ClrBPEx(BPHandle = 0x00000004)  returns 0x00 (0000ms, 0437ms total)
T4524 1284:172 JLINK_ReadReg(R0)  returns 0x00000001 (0000ms, 0437ms total)
T4524 1284:172 JLINK_WriteReg(R0, 0x08000400)  returns 0x00 (0000ms, 0437ms total)
T4524 1284:172 JLINK_WriteReg(R1, 0x00000400)  returns 0x00 (0000ms, 0437ms total)
T4524 1284:172 JLINK_WriteReg(R2, 0x000000FF)  returns 0x00 (0000ms, 0437ms total)
T4524 1284:172 JLINK_WriteReg(R3, 0x00000000)  returns 0x00 (0000ms, 0437ms total)
T4524 1284:172 JLINK_WriteReg(R4, 0x00000000)  returns 0x00 (0000ms, 0437ms total)
T4524 1284:172 JLINK_WriteReg(R5, 0x00000000)  returns 0x00 (0000ms, 0437ms total)
T4524 1284:172 JLINK_WriteReg(R6, 0x00000000)  returns 0x00 (0000ms, 0437ms total)
T4524 1284:172 JLINK_WriteReg(R7, 0x00000000)  returns 0x00 (0000ms, 0437ms total)
T4524 1284:172 JLINK_WriteReg(R8, 0x00000000)  returns 0x00 (0000ms, 0437ms total)
T4524 1284:172 JLINK_WriteReg(R9, 0x20000160)  returns 0x00 (0000ms, 0437ms total)
T4524 1284:172 JLINK_WriteReg(R10, 0x00000000)  returns 0x00 (0000ms, 0437ms total)
T4524 1284:172 JLINK_WriteReg(R11, 0x00000000)  returns 0x00 (0000ms, 0437ms total)
T4524 1284:172 JLINK_WriteReg(R12, 0x00000000)  returns 0x00 (0000ms, 0437ms total)
T4524 1284:172 JLINK_WriteReg(R13, 0x20001000)  returns 0x00 (0000ms, 0437ms total)
T4524 1284:172 JLINK_WriteReg(R14, 0x20000001)  returns 0x00 (0000ms, 0437ms total)
T4524 1284:172 JLINK_WriteReg(R15, 0x200000B6)  returns 0x00 (0000ms, 0437ms total)
T4524 1284:172 JLINK_WriteReg(XPSR, 0x01000000)  returns 0x00 (0000ms, 0437ms total)
T4524 1284:172 JLINK_WriteReg(MSP, 0x20001000)  returns 0x00 (0000ms, 0437ms total)
T4524 1284:172 JLINK_WriteReg(PSP, 0x20001000)  returns 0x00 (0000ms, 0437ms total)
T4524 1284:172 JLINK_WriteReg(CFBP, 0x00000000)  returns 0x00 (0000ms, 0437ms total)
T4524 1284:172 JLINK_SetBPEx(Addr = 0x20000000, Type = 0xFFFFFFF2)  returns 0x00000005 (0000ms, 0437ms total)
T4524 1284:172 JLINK_Go() (0002ms, 0439ms total)
T4524 1284:174 JLINK_IsHalted()  returns FALSE (0000ms, 0439ms total)
T4524 1284:176 JLINK_IsHalted()  returns FALSE (0000ms, 0439ms total)
T4524 1284:178 JLINK_IsHalted()  returns FALSE (0000ms, 0439ms total)
T4524 1284:180 JLINK_IsHalted()  returns FALSE (0000ms, 0439ms total)
T4524 1284:182 JLINK_IsHalted()  returns FALSE (0000ms, 0439ms total)
T4524 1284:185 JLINK_IsHalted()  returns FALSE (0000ms, 0439ms total)
T4524 1284:187 JLINK_IsHalted()  returns FALSE (0000ms, 0439ms total)
T4524 1284:189 JLINK_IsHalted()  returns FALSE (0000ms, 0439ms total)
T4524 1284:191 JLINK_IsHalted()  returns FALSE (0000ms, 0439ms total)
T4524 1284:193 JLINK_IsHalted()  returns FALSE (0000ms, 0439ms total)
T4524 1284:195 JLINK_IsHalted()  returns FALSE (0000ms, 0439ms total)
T4524 1284:197 JLINK_IsHalted()  returns FALSE (0000ms, 0439ms total)
T4524 1284:199 JLINK_IsHalted()  returns FALSE (0001ms, 0440ms total)
T4524 1284:201 JLINK_IsHalted()  returns FALSE (0000ms, 0439ms total)
T4524 1284:203 JLINK_IsHalted()  returns FALSE (0000ms, 0439ms total)
T4524 1284:204 JLINK_IsHalted()  returns FALSE (0000ms, 0439ms total)
T4524 1284:206 JLINK_IsHalted()  returns FALSE (0001ms, 0440ms total)
T4524 1284:209 JLINK_IsHalted()  returns FALSE (0001ms, 0440ms total)
T4524 1284:212 JLINK_IsHalted() -- CPU_ReadMem(2 bytes @ 0x20000000)  returns TRUE (0004ms, 0443ms total)
T4524 1284:216 JLINK_ReadReg(R15)  returns 0x20000000 (0000ms, 0439ms total)
T4524 1284:216 JLINK_ClrBPEx(BPHandle = 0x00000005)  returns 0x00 (0000ms, 0439ms total)
T4524 1284:216 JLINK_ReadReg(R0)  returns 0x00000000 (0000ms, 0439ms total)
T4524 1284:216 JLINK_WriteReg(R0, 0x08000800)  returns 0x00 (0000ms, 0439ms total)
T4524 1284:216 JLINK_WriteReg(R1, 0x00000400)  returns 0x00 (0000ms, 0439ms total)
T4524 1284:216 JLINK_WriteReg(R2, 0x000000FF)  returns 0x00 (0001ms, 0440ms total)
T4524 1284:217 JLINK_WriteReg(R3, 0x00000000)  returns 0x00 (0000ms, 0440ms total)
T4524 1284:217 JLINK_WriteReg(R4, 0x00000000)  returns 0x00 (0000ms, 0440ms total)
T4524 1284:217 JLINK_WriteReg(R5, 0x00000000)  returns 0x00 (0000ms, 0440ms total)
T4524 1284:217 JLINK_WriteReg(R6, 0x00000000)  returns 0x00 (0000ms, 0440ms total)
T4524 1284:217 JLINK_WriteReg(R7, 0x00000000)  returns 0x00 (0000ms, 0440ms total)
T4524 1284:217 JLINK_WriteReg(R8, 0x00000000)  returns 0x00 (0000ms, 0440ms total)
T4524 1284:217 JLINK_WriteReg(R9, 0x20000160)  returns 0x00 (0000ms, 0440ms total)
T4524 1284:217 JLINK_WriteReg(R10, 0x00000000)  returns 0x00 (0000ms, 0440ms total)
T4524 1284:217 JLINK_WriteReg(R11, 0x00000000)  returns 0x00 (0000ms, 0440ms total)
T4524 1284:217 JLINK_WriteReg(R12, 0x00000000)  returns 0x00 (0000ms, 0440ms total)
T4524 1284:217 JLINK_WriteReg(R13, 0x20001000)  returns 0x00 (0000ms, 0440ms total)
T4524 1284:217 JLINK_WriteReg(R14, 0x20000001)  returns 0x00 (0000ms, 0440ms total)
T4524 1284:217 JLINK_WriteReg(R15, 0x20000020)  returns 0x00 (0000ms, 0440ms total)
T4524 1284:217 JLINK_WriteReg(XPSR, 0x01000000)  returns 0x00 (0000ms, 0440ms total)
T4524 1284:217 JLINK_WriteReg(MSP, 0x20001000)  returns 0x00 (0000ms, 0440ms total)
T4524 1284:217 JLINK_WriteReg(PSP, 0x20001000)  returns 0x00 (0000ms, 0440ms total)
T4524 1284:217 JLINK_WriteReg(CFBP, 0x00000000)  returns 0x00 (0000ms, 0440ms total)
T4524 1284:217 JLINK_SetBPEx(Addr = 0x20000000, Type = 0xFFFFFFF2)  returns 0x00000006 (0000ms, 0440ms total)
T4524 1284:217 JLINK_Go() (0002ms, 0442ms total)
T4524 1284:219 JLINK_IsHalted() -- CPU_ReadMem(2 bytes @ 0x20000000)  returns TRUE (0004ms, 0446ms total)
T4524 1284:223 JLINK_ReadReg(R15)  returns 0x20000000 (0000ms, 0442ms total)
T4524 1284:223 JLINK_ClrBPEx(BPHandle = 0x00000006)  returns 0x00 (0000ms, 0442ms total)
T4524 1284:223 JLINK_ReadReg(R0)  returns 0x00000001 (0000ms, 0442ms total)
T4524 1284:223 JLINK_WriteReg(R0, 0x08000800)  returns 0x00 (0000ms, 0442ms total)
T4524 1284:223 JLINK_WriteReg(R1, 0x00000400)  returns 0x00 (0000ms, 0442ms total)
T4524 1284:223 JLINK_WriteReg(R2, 0x000000FF)  returns 0x00 (0000ms, 0442ms total)
T4524 1284:223 JLINK_WriteReg(R3, 0x00000000)  returns 0x00 (0000ms, 0442ms total)
T4524 1284:223 JLINK_WriteReg(R4, 0x00000000)  returns 0x00 (0000ms, 0442ms total)
T4524 1284:223 JLINK_WriteReg(R5, 0x00000000)  returns 0x00 (0000ms, 0442ms total)
T4524 1284:223 JLINK_WriteReg(R6, 0x00000000)  returns 0x00 (0000ms, 0442ms total)
T4524 1284:223 JLINK_WriteReg(R7, 0x00000000)  returns 0x00 (0000ms, 0442ms total)
T4524 1284:223 JLINK_WriteReg(R8, 0x00000000)  returns 0x00 (0000ms, 0442ms total)
T4524 1284:223 JLINK_WriteReg(R9, 0x20000160)  returns 0x00 (0000ms, 0442ms total)
T4524 1284:223 JLINK_WriteReg(R10, 0x00000000)  returns 0x00 (0000ms, 0442ms total)
T4524 1284:223 JLINK_WriteReg(R11, 0x00000000)  returns 0x00 (0000ms, 0442ms total)
T4524 1284:223 JLINK_WriteReg(R12, 0x00000000)  returns 0x00 (0000ms, 0442ms total)
T4524 1284:223 JLINK_WriteReg(R13, 0x20001000)  returns 0x00 (0000ms, 0442ms total)
T4524 1284:223 JLINK_WriteReg(R14, 0x20000001)  returns 0x00 (0000ms, 0442ms total)
T4524 1284:223 JLINK_WriteReg(R15, 0x200000B6)  returns 0x00 (0000ms, 0442ms total)
T4524 1284:223 JLINK_WriteReg(XPSR, 0x01000000)  returns 0x00 (0000ms, 0442ms total)
T4524 1284:223 JLINK_WriteReg(MSP, 0x20001000)  returns 0x00 (0000ms, 0442ms total)
T4524 1284:223 JLINK_WriteReg(PSP, 0x20001000)  returns 0x00 (0000ms, 0442ms total)
T4524 1284:223 JLINK_WriteReg(CFBP, 0x00000000)  returns 0x00 (0000ms, 0442ms total)
T4524 1284:223 JLINK_SetBPEx(Addr = 0x20000000, Type = 0xFFFFFFF2)  returns 0x00000007 (0000ms, 0442ms total)
T4524 1284:223 JLINK_Go() (0002ms, 0444ms total)
T4524 1284:225 JLINK_IsHalted()  returns FALSE (0000ms, 0444ms total)
T4524 1284:227 JLINK_IsHalted()  returns FALSE (0000ms, 0444ms total)
T4524 1284:229 JLINK_IsHalted()  returns FALSE (0000ms, 0444ms total)
T4524 1284:231 JLINK_IsHalted()  returns FALSE (0001ms, 0445ms total)
T4524 1284:234 JLINK_IsHalted()  returns FALSE (0001ms, 0445ms total)
T4524 1284:237 JLINK_IsHalted()  returns FALSE (0000ms, 0444ms total)
T4524 1284:239 JLINK_IsHalted()  returns FALSE (0001ms, 0445ms total)
T4524 1284:242 JLINK_IsHalted()  returns FALSE (0000ms, 0444ms total)
T4524 1284:244 JLINK_IsHalted()  returns FALSE (0000ms, 0444ms total)
T4524 1284:248 JLINK_IsHalted()  returns FALSE (0000ms, 0444ms total)
T4524 1284:250 JLINK_IsHalted()  returns FALSE (0001ms, 0445ms total)
T4524 1284:253 JLINK_IsHalted()  returns FALSE (0000ms, 0444ms total)
T4524 1284:255 JLINK_IsHalted()  returns FALSE (0001ms, 0445ms total)
T4524 1284:258 JLINK_IsHalted()  returns FALSE (0001ms, 0445ms total)
T4524 1284:264 JLINK_IsHalted() -- CPU_ReadMem(2 bytes @ 0x20000000)  returns TRUE (0003ms, 0447ms total)
T4524 1284:267 JLINK_ReadReg(R15)  returns 0x20000000 (0000ms, 0444ms total)
T4524 1284:267 JLINK_ClrBPEx(BPHandle = 0x00000007)  returns 0x00 (0000ms, 0444ms total)
T4524 1284:267 JLINK_ReadReg(R0)  returns 0x00000000 (0000ms, 0444ms total)
T4524 1284:268 JLINK_WriteReg(R0, 0x00000001)  returns 0x00 (0000ms, 0444ms total)
T4524 1284:268 JLINK_WriteReg(R1, 0x00000400)  returns 0x00 (0000ms, 0444ms total)
T4524 1284:268 JLINK_WriteReg(R2, 0x000000FF)  returns 0x00 (0000ms, 0444ms total)
T4524 1284:268 JLINK_WriteReg(R3, 0x00000000)  returns 0x00 (0000ms, 0444ms total)
T4524 1284:268 JLINK_WriteReg(R4, 0x00000000)  returns 0x00 (0000ms, 0444ms total)
T4524 1284:268 JLINK_WriteReg(R5, 0x00000000)  returns 0x00 (0000ms, 0444ms total)
T4524 1284:268 JLINK_WriteReg(R6, 0x00000000)  returns 0x00 (0000ms, 0444ms total)
T4524 1284:268 JLINK_WriteReg(R7, 0x00000000)  returns 0x00 (0000ms, 0444ms total)
T4524 1284:268 JLINK_WriteReg(R8, 0x00000000)  returns 0x00 (0000ms, 0444ms total)
T4524 1284:268 JLINK_WriteReg(R9, 0x20000160)  returns 0x00 (0000ms, 0444ms total)
T4524 1284:268 JLINK_WriteReg(R10, 0x00000000)  returns 0x00 (0000ms, 0444ms total)
T4524 1284:268 JLINK_WriteReg(R11, 0x00000000)  returns 0x00 (0000ms, 0444ms total)
T4524 1284:268 JLINK_WriteReg(R12, 0x00000000)  returns 0x00 (0001ms, 0445ms total)
T4524 1284:269 JLINK_WriteReg(R13, 0x20001000)  returns 0x00 (0000ms, 0445ms total)
T4524 1284:269 JLINK_WriteReg(R14, 0x20000001)  returns 0x00 (0000ms, 0445ms total)
T4524 1284:269 JLINK_WriteReg(R15, 0x2000006A)  returns 0x00 (0000ms, 0445ms total)
T4524 1284:269 JLINK_WriteReg(XPSR, 0x01000000)  returns 0x00 (0000ms, 0445ms total)
T4524 1284:269 JLINK_WriteReg(MSP, 0x20001000)  returns 0x00 (0000ms, 0445ms total)
T4524 1284:269 JLINK_WriteReg(PSP, 0x20001000)  returns 0x00 (0000ms, 0445ms total)
T4524 1284:269 JLINK_WriteReg(CFBP, 0x00000000)  returns 0x00 (0000ms, 0445ms total)
T4524 1284:269 JLINK_SetBPEx(Addr = 0x20000000, Type = 0xFFFFFFF2)  returns 0x00000008 (0000ms, 0445ms total)
T4524 1284:269 JLINK_Go() (0002ms, 0447ms total)
T4524 1284:271 JLINK_IsHalted() -- CPU_ReadMem(2 bytes @ 0x20000000)  returns TRUE (0004ms, 0451ms total)
T4524 1284:275 JLINK_ReadReg(R15)  returns 0x20000000 (0000ms, 0447ms total)
T4524 1284:275 JLINK_ClrBPEx(BPHandle = 0x00000008)  returns 0x00 (0000ms, 0447ms total)
T4524 1284:275 JLINK_ReadReg(R0)  returns 0x00000000 (0000ms, 0447ms total)
T4524 1284:335 JLINK_WriteMem(0x20000000, 0x0164 Bytes, ...) -- Data:  00 BE 0A E0 0D 78 2D 06 68 40 08 24 40 00 00 D3 ... -- CPU_WriteMem(356 bytes @ 0x20000000)  returns 0x164 (0005ms, 0452ms total)
T4524 1284:340 JLINK_WriteReg(R0, 0x08000000)  returns 0x00 (0000ms, 0452ms total)
T4524 1284:340 JLINK_WriteReg(R1, 0x00B71B00)  returns 0x00 (0001ms, 0453ms total)
T4524 1284:341 JLINK_WriteReg(R2, 0x00000002)  returns 0x00 (0000ms, 0453ms total)
T4524 1284:341 JLINK_WriteReg(R3, 0x00000000)  returns 0x00 (0000ms, 0453ms total)
T4524 1284:341 JLINK_WriteReg(R4, 0x00000000)  returns 0x00 (0000ms, 0453ms total)
T4524 1284:341 JLINK_WriteReg(R5, 0x00000000)  returns 0x00 (0000ms, 0453ms total)
T4524 1284:341 JLINK_WriteReg(R6, 0x00000000)  returns 0x00 (0000ms, 0453ms total)
T4524 1284:341 JLINK_WriteReg(R7, 0x00000000)  returns 0x00 (0000ms, 0453ms total)
T4524 1284:341 JLINK_WriteReg(R8, 0x00000000)  returns 0x00 (0000ms, 0453ms total)
T4524 1284:341 JLINK_WriteReg(R9, 0x20000160)  returns 0x00 (0000ms, 0453ms total)
T4524 1284:341 JLINK_WriteReg(R10, 0x00000000)  returns 0x00 (0000ms, 0453ms total)
T4524 1284:341 JLINK_WriteReg(R11, 0x00000000)  returns 0x00 (0000ms, 0453ms total)
T4524 1284:341 JLINK_WriteReg(R12, 0x00000000)  returns 0x00 (0000ms, 0453ms total)
T4524 1284:341 JLINK_WriteReg(R13, 0x20001000)  returns 0x00 (0000ms, 0453ms total)
T4524 1284:341 JLINK_WriteReg(R14, 0x20000001)  returns 0x00 (0000ms, 0453ms total)
T4524 1284:341 JLINK_WriteReg(R15, 0x20000038)  returns 0x00 (0000ms, 0453ms total)
T4524 1284:341 JLINK_WriteReg(XPSR, 0x01000000)  returns 0x00 (0000ms, 0453ms total)
T4524 1284:341 JLINK_WriteReg(MSP, 0x20001000)  returns 0x00 (0000ms, 0453ms total)
T4524 1284:341 JLINK_WriteReg(PSP, 0x20001000)  returns 0x00 (0000ms, 0453ms total)
T4524 1284:341 JLINK_WriteReg(CFBP, 0x00000000)  returns 0x00 (0000ms, 0453ms total)
T4524 1284:341 JLINK_SetBPEx(Addr = 0x20000000, Type = 0xFFFFFFF2) -- CPU_ReadMem(2 bytes @ 0x20000000)  returns 0x00000009 (0001ms, 0454ms total)
T4524 1284:342 JLINK_Go() -- CPU_WriteMem(2 bytes @ 0x20000000) (0003ms, 0457ms total)
T4524 1284:345 JLINK_IsHalted() -- CPU_ReadMem(2 bytes @ 0x20000000)  returns TRUE (0003ms, 0460ms total)
T4524 1284:348 JLINK_ReadReg(R15)  returns 0x20000000 (0000ms, 0457ms total)
T4524 1284:348 JLINK_ClrBPEx(BPHandle = 0x00000009)  returns 0x00 (0000ms, 0457ms total)
T4524 1284:348 JLINK_ReadReg(R0)  returns 0x00000000 (0000ms, 0457ms total)
T4524 1284:348 JLINK_WriteMem(0x20000164, 0x029C Bytes, ...) -- Data:  88 04 00 20 01 01 00 08 09 01 00 08 0B 01 00 08 ... -- CPU_WriteMem(668 bytes @ 0x20000164)  returns 0x29C (0009ms, 0466ms total)
T4524 1284:357 JLINK_WriteMem(0x20000400, 0x0164 Bytes, ...) -- Data:  C4 F5 E0 64 21 0A C1 F1 04 03 CA 40 44 78 04 FA ... -- CPU_WriteMem(356 bytes @ 0x20000400)  returns 0x164 (0005ms, 0471ms total)
T4524 1284:362 JLINK_WriteReg(R0, 0x08000000)  returns 0x00 (0000ms, 0471ms total)
T4524 1284:362 JLINK_WriteReg(R1, 0x00000400)  returns 0x00 (0000ms, 0471ms total)
T4524 1284:362 JLINK_WriteReg(R2, 0x20000164)  returns 0x00 (0000ms, 0471ms total)
T4524 1284:362 JLINK_WriteReg(R3, 0x00000000)  returns 0x00 (0000ms, 0471ms total)
T4524 1284:362 JLINK_WriteReg(R4, 0x00000000)  returns 0x00 (0000ms, 0471ms total)
T4524 1284:362 JLINK_WriteReg(R5, 0x00000000)  returns 0x00 (0000ms, 0471ms total)
T4524 1284:362 JLINK_WriteReg(R6, 0x00000000)  returns 0x00 (0000ms, 0471ms total)
T4524 1284:362 JLINK_WriteReg(R7, 0x00000000)  returns 0x00 (0000ms, 0471ms total)
T4524 1284:362 JLINK_WriteReg(R8, 0x00000000)  returns 0x00 (0000ms, 0471ms total)
T4524 1284:362 JLINK_WriteReg(R9, 0x20000160)  returns 0x00 (0000ms, 0471ms total)
T4524 1284:362 JLINK_WriteReg(R10, 0x00000000)  returns 0x00 (0000ms, 0471ms total)
T4524 1284:362 JLINK_WriteReg(R11, 0x00000000)  returns 0x00 (0000ms, 0471ms total)
T4524 1284:362 JLINK_WriteReg(R12, 0x00000000)  returns 0x00 (0000ms, 0471ms total)
T4524 1284:362 JLINK_WriteReg(R13, 0x20001000)  returns 0x00 (0000ms, 0471ms total)
T4524 1284:362 JLINK_WriteReg(R14, 0x20000001)  returns 0x00 (0000ms, 0471ms total)
T4524 1284:362 JLINK_WriteReg(R15, 0x200000F4)  returns 0x00 (0000ms, 0471ms total)
T4524 1284:362 JLINK_WriteReg(XPSR, 0x01000000)  returns 0x00 (0000ms, 0471ms total)
T4524 1284:362 JLINK_WriteReg(MSP, 0x20001000)  returns 0x00 (0000ms, 0471ms total)
T4524 1284:362 JLINK_WriteReg(PSP, 0x20001000)  returns 0x00 (0000ms, 0471ms total)
T4524 1284:362 JLINK_WriteReg(CFBP, 0x00000000)  returns 0x00 (0000ms, 0471ms total)
T4524 1284:362 JLINK_SetBPEx(Addr = 0x20000000, Type = 0xFFFFFFF2)  returns 0x0000000A (0000ms, 0471ms total)
T4524 1284:362 JLINK_Go() (0003ms, 0474ms total)
T4524 1284:365 JLINK_IsHalted()  returns FALSE (0000ms, 0474ms total)
T4524 1284:370 JLINK_IsHalted()  returns FALSE (0000ms, 0474ms total)
T4524 1284:372 JLINK_IsHalted()  returns FALSE (0001ms, 0475ms total)
T4524 1284:375 JLINK_IsHalted()  returns FALSE (0001ms, 0475ms total)
T4524 1284:378 JLINK_IsHalted()  returns FALSE (0000ms, 0474ms total)
T4524 1284:381 JLINK_IsHalted()  returns FALSE (0000ms, 0474ms total)
T4524 1284:383 JLINK_IsHalted()  returns FALSE (0000ms, 0474ms total)
T4524 1284:386 JLINK_IsHalted()  returns FALSE (0001ms, 0475ms total)
T4524 1284:389 JLINK_IsHalted()  returns FALSE (0001ms, 0475ms total)
T4524 1284:392 JLINK_IsHalted()  returns FALSE (0000ms, 0474ms total)
T4524 1284:394 JLINK_IsHalted()  returns FALSE (0000ms, 0474ms total)
T4524 1284:396 JLINK_IsHalted()  returns FALSE (0001ms, 0475ms total)
T4524 1284:399 JLINK_IsHalted()  returns FALSE (0000ms, 0474ms total)
T4524 1284:401 JLINK_IsHalted()  returns FALSE (0000ms, 0474ms total)
T4524 1284:403 JLINK_IsHalted()  returns FALSE (0000ms, 0474ms total)
T4524 1284:405 JLINK_IsHalted()  returns FALSE (0000ms, 0474ms total)
T4524 1284:407 JLINK_IsHalted()  returns FALSE (0000ms, 0474ms total)
T4524 1284:409 JLINK_IsHalted()  returns FALSE (0001ms, 0475ms total)
T4524 1284:412 JLINK_IsHalted()  returns FALSE (0000ms, 0474ms total)
T4524 1284:414 JLINK_IsHalted()  returns FALSE (0000ms, 0474ms total)
T4524 1284:416 JLINK_IsHalted()  returns FALSE (0000ms, 0474ms total)
T4524 1284:418 JLINK_IsHalted() -- CPU_ReadMem(2 bytes @ 0x20000000)  returns TRUE (0003ms, 0477ms total)
T4524 1284:421 JLINK_ReadReg(R15)  returns 0x20000000 (0000ms, 0474ms total)
T4524 1284:421 JLINK_ClrBPEx(BPHandle = 0x0000000A)  returns 0x00 (0000ms, 0474ms total)
T4524 1284:421 JLINK_ReadReg(R0)  returns 0x00000000 (0000ms, 0474ms total)
T4524 1284:422 JLINK_WriteMem(0x20000164, 0x029C Bytes, ...) -- Data:  10 B5 00 F0 01 F8 10 BD 0C B5 00 20 01 90 00 90 ... -- CPU_WriteMem(668 bytes @ 0x20000164)  returns 0x29C (0008ms, 0482ms total)
T4524 1284:430 JLINK_WriteMem(0x20000400, 0x0164 Bytes, ...) -- Data:  89 00 B0 FB F1 F8 64 20 B8 FB F0 F0 04 01 20 09 ... -- CPU_WriteMem(356 bytes @ 0x20000400)  returns 0x164 (0005ms, 0487ms total)
T4524 1284:435 JLINK_WriteReg(R0, 0x08000400)  returns 0x00 (0000ms, 0487ms total)
T4524 1284:435 JLINK_WriteReg(R1, 0x00000400)  returns 0x00 (0000ms, 0487ms total)
T4524 1284:435 JLINK_WriteReg(R2, 0x20000164)  returns 0x00 (0000ms, 0487ms total)
T4524 1284:435 JLINK_WriteReg(R3, 0x00000000)  returns 0x00 (0000ms, 0487ms total)
T4524 1284:435 JLINK_WriteReg(R4, 0x00000000)  returns 0x00 (0000ms, 0487ms total)
T4524 1284:435 JLINK_WriteReg(R5, 0x00000000)  returns 0x00 (0000ms, 0487ms total)
T4524 1284:435 JLINK_WriteReg(R6, 0x00000000)  returns 0x00 (0000ms, 0487ms total)
T4524 1284:435 JLINK_WriteReg(R7, 0x00000000)  returns 0x00 (0000ms, 0487ms total)
T4524 1284:435 JLINK_WriteReg(R8, 0x00000000)  returns 0x00 (0000ms, 0487ms total)
T4524 1284:435 JLINK_WriteReg(R9, 0x20000160)  returns 0x00 (0000ms, 0487ms total)
T4524 1284:435 JLINK_WriteReg(R10, 0x00000000)  returns 0x00 (0000ms, 0487ms total)
T4524 1284:435 JLINK_WriteReg(R11, 0x00000000)  returns 0x00 (0000ms, 0487ms total)
T4524 1284:435 JLINK_WriteReg(R12, 0x00000000)  returns 0x00 (0000ms, 0487ms total)
T4524 1284:435 JLINK_WriteReg(R13, 0x20001000)  returns 0x00 (0000ms, 0487ms total)
T4524 1284:435 JLINK_WriteReg(R14, 0x20000001)  returns 0x00 (0000ms, 0487ms total)
T4524 1284:435 JLINK_WriteReg(R15, 0x200000F4)  returns 0x00 (0000ms, 0487ms total)
T4524 1284:435 JLINK_WriteReg(XPSR, 0x01000000)  returns 0x00 (0000ms, 0487ms total)
T4524 1284:435 JLINK_WriteReg(MSP, 0x20001000)  returns 0x00 (0000ms, 0487ms total)
T4524 1284:436 JLINK_WriteReg(PSP, 0x20001000)  returns 0x00 (0000ms, 0488ms total)
T4524 1284:436 JLINK_WriteReg(CFBP, 0x00000000)  returns 0x00 (0000ms, 0488ms total)
T4524 1284:436 JLINK_SetBPEx(Addr = 0x20000000, Type = 0xFFFFFFF2)  returns 0x0000000B (0000ms, 0488ms total)
T4524 1284:436 JLINK_Go() (0001ms, 0489ms total)
T4524 1284:437 JLINK_IsHalted()  returns FALSE (0001ms, 0490ms total)
T4524 1284:440 JLINK_IsHalted()  returns FALSE (0001ms, 0490ms total)
T4524 1284:443 JLINK_IsHalted()  returns FALSE (0000ms, 0489ms total)
T4524 1284:445 JLINK_IsHalted()  returns FALSE (0001ms, 0490ms total)
T4524 1284:448 JLINK_IsHalted()  returns FALSE (0000ms, 0489ms total)
T4524 1284:451 JLINK_IsHalted()  returns FALSE (0000ms, 0489ms total)
T4524 1284:453 JLINK_IsHalted()  returns FALSE (0001ms, 0490ms total)
T4524 1284:456 JLINK_IsHalted()  returns FALSE (0000ms, 0489ms total)
T4524 1284:458 JLINK_IsHalted()  returns FALSE (0001ms, 0490ms total)
T4524 1284:461 JLINK_IsHalted()  returns FALSE (0001ms, 0490ms total)
T4524 1284:471 JLINK_IsHalted()  returns FALSE (0001ms, 0490ms total)
T4524 1284:474 JLINK_IsHalted()  returns FALSE (0000ms, 0489ms total)
T4524 1284:476 JLINK_IsHalted()  returns FALSE (0000ms, 0489ms total)
T4524 1284:481 JLINK_IsHalted()  returns FALSE (0001ms, 0490ms total)
T4524 1284:484 JLINK_IsHalted()  returns FALSE (0001ms, 0490ms total)
T4524 1284:487 JLINK_IsHalted()  returns FALSE (0000ms, 0489ms total)
T4524 1284:489 JLINK_IsHalted()  returns FALSE (0001ms, 0490ms total)
T4524 1284:492 JLINK_IsHalted() -- CPU_ReadMem(2 bytes @ 0x20000000)  returns TRUE (0003ms, 0492ms total)
T4524 1284:495 JLINK_ReadReg(R15)  returns 0x20000000 (0000ms, 0489ms total)
T4524 1284:495 JLINK_ClrBPEx(BPHandle = 0x0000000B)  returns 0x00 (0000ms, 0489ms total)
T4524 1284:495 JLINK_ReadReg(R0)  returns 0x00000000 (0000ms, 0489ms total)
T4524 1284:496 JLINK_WriteMem(0x20000164, 0x029C Bytes, ...) -- Data:  FF F7 90 FC 28 B9 FF F7 CB FF 15 A0 FF F7 78 FF ... -- CPU_WriteMem(668 bytes @ 0x20000164)  returns 0x29C (0008ms, 0497ms total)
T4524 1284:504 JLINK_WriteMem(0x20000400, 0x0164 Bytes, ...) -- Data:  FF FF FF FF FF FF FF FF FF FF FF FF FF FF FF FF ... -- CPU_WriteMem(356 bytes @ 0x20000400)  returns 0x164 (0005ms, 0502ms total)
T4524 1284:509 JLINK_WriteReg(R0, 0x08000800)  returns 0x00 (0000ms, 0502ms total)
T4524 1284:509 JLINK_WriteReg(R1, 0x000001D0)  returns 0x00 (0000ms, 0502ms total)
T4524 1284:509 JLINK_WriteReg(R2, 0x20000164)  returns 0x00 (0000ms, 0502ms total)
T4524 1284:509 JLINK_WriteReg(R3, 0x00000000)  returns 0x00 (0000ms, 0502ms total)
T4524 1284:509 JLINK_WriteReg(R4, 0x00000000)  returns 0x00 (0000ms, 0502ms total)
T4524 1284:509 JLINK_WriteReg(R5, 0x00000000)  returns 0x00 (0000ms, 0502ms total)
T4524 1284:509 JLINK_WriteReg(R6, 0x00000000)  returns 0x00 (0000ms, 0502ms total)
T4524 1284:509 JLINK_WriteReg(R7, 0x00000000)  returns 0x00 (0000ms, 0502ms total)
T4524 1284:509 JLINK_WriteReg(R8, 0x00000000)  returns 0x00 (0000ms, 0502ms total)
T4524 1284:509 JLINK_WriteReg(R9, 0x20000160)  returns 0x00 (0000ms, 0502ms total)
T4524 1284:509 JLINK_WriteReg(R10, 0x00000000)  returns 0x00 (0000ms, 0502ms total)
T4524 1284:509 JLINK_WriteReg(R11, 0x00000000)  returns 0x00 (0000ms, 0502ms total)
T4524 1284:509 JLINK_WriteReg(R12, 0x00000000)  returns 0x00 (0000ms, 0502ms total)
T4524 1284:509 JLINK_WriteReg(R13, 0x20001000)  returns 0x00 (0000ms, 0502ms total)
T4524 1284:509 JLINK_WriteReg(R14, 0x20000001)  returns 0x00 (0000ms, 0502ms total)
T4524 1284:509 JLINK_WriteReg(R15, 0x200000F4)  returns 0x00 (0000ms, 0502ms total)
T4524 1284:509 JLINK_WriteReg(XPSR, 0x01000000)  returns 0x00 (0000ms, 0502ms total)
T4524 1284:509 JLINK_WriteReg(MSP, 0x20001000)  returns 0x00 (0000ms, 0502ms total)
T4524 1284:509 JLINK_WriteReg(PSP, 0x20001000)  returns 0x00 (0000ms, 0502ms total)
T4524 1284:509 JLINK_WriteReg(CFBP, 0x00000000)  returns 0x00 (0000ms, 0502ms total)
T4524 1284:509 JLINK_SetBPEx(Addr = 0x20000000, Type = 0xFFFFFFF2)  returns 0x0000000C (0000ms, 0502ms total)
T4524 1284:509 JLINK_Go() (0002ms, 0504ms total)
T4524 1284:511 JLINK_IsHalted()  returns FALSE (0001ms, 0505ms total)
T4524 1284:514 JLINK_IsHalted()  returns FALSE (0001ms, 0505ms total)
T4524 1284:517 JLINK_IsHalted()  returns FALSE (0000ms, 0504ms total)
T4524 1284:519 JLINK_IsHalted()  returns FALSE (0000ms, 0504ms total)
T4524 1284:521 JLINK_IsHalted()  returns FALSE (0000ms, 0504ms total)
T4524 1284:524 JLINK_IsHalted()  returns FALSE (0000ms, 0504ms total)
T4524 1284:526 JLINK_IsHalted()  returns FALSE (0000ms, 0504ms total)
T4524 1284:528 JLINK_IsHalted()  returns FALSE (0001ms, 0505ms total)
T4524 1284:531 JLINK_IsHalted()  returns FALSE (0000ms, 0504ms total)
T4524 1284:534 JLINK_IsHalted()  returns FALSE (0000ms, 0504ms total)
T4524 1284:536 JLINK_IsHalted() -- CPU_ReadMem(2 bytes @ 0x20000000)  returns TRUE (0004ms, 0508ms total)
T4524 1284:540 JLINK_ReadReg(R15)  returns 0x20000000 (0000ms, 0504ms total)
T4524 1284:540 JLINK_ClrBPEx(BPHandle = 0x0000000C)  returns 0x00 (0000ms, 0504ms total)
T4524 1284:540 JLINK_ReadReg(R0)  returns 0x00000000 (0000ms, 0504ms total)
T4524 1284:540 JLINK_WriteReg(R0, 0x00000002)  returns 0x00 (0000ms, 0504ms total)
T4524 1284:540 JLINK_WriteReg(R1, 0x000001D0)  returns 0x00 (0000ms, 0504ms total)
T4524 1284:540 JLINK_WriteReg(R2, 0x20000164)  returns 0x00 (0000ms, 0504ms total)
T4524 1284:540 JLINK_WriteReg(R3, 0x00000000)  returns 0x00 (0000ms, 0504ms total)
T4524 1284:540 JLINK_WriteReg(R4, 0x00000000)  returns 0x00 (0000ms, 0504ms total)
T4524 1284:540 JLINK_WriteReg(R5, 0x00000000)  returns 0x00 (0000ms, 0504ms total)
T4524 1284:540 JLINK_WriteReg(R6, 0x00000000)  returns 0x00 (0000ms, 0504ms total)
T4524 1284:540 JLINK_WriteReg(R7, 0x00000000)  returns 0x00 (0000ms, 0504ms total)
T4524 1284:540 JLINK_WriteReg(R8, 0x00000000)  returns 0x00 (0000ms, 0504ms total)
T4524 1284:540 JLINK_WriteReg(R9, 0x20000160)  returns 0x00 (0000ms, 0504ms total)
T4524 1284:540 JLINK_WriteReg(R10, 0x00000000)  returns 0x00 (0000ms, 0504ms total)
T4524 1284:540 JLINK_WriteReg(R11, 0x00000000)  returns 0x00 (0000ms, 0504ms total)
T4524 1284:540 JLINK_WriteReg(R12, 0x00000000)  returns 0x00 (0000ms, 0504ms total)
T4524 1284:540 JLINK_WriteReg(R13, 0x20001000)  returns 0x00 (0000ms, 0504ms total)
T4524 1284:540 JLINK_WriteReg(R14, 0x20000001)  returns 0x00 (0000ms, 0504ms total)
T4524 1284:540 JLINK_WriteReg(R15, 0x2000006A)  returns 0x00 (0000ms, 0504ms total)
T4524 1284:540 JLINK_WriteReg(XPSR, 0x01000000)  returns 0x00 (0000ms, 0504ms total)
T4524 1284:540 JLINK_WriteReg(MSP, 0x20001000)  returns 0x00 (0000ms, 0504ms total)
T4524 1284:540 JLINK_WriteReg(PSP, 0x20001000)  returns 0x00 (0000ms, 0504ms total)
T4524 1284:540 JLINK_WriteReg(CFBP, 0x00000000)  returns 0x00 (0000ms, 0504ms total)
T4524 1284:540 JLINK_SetBPEx(Addr = 0x20000000, Type = 0xFFFFFFF2)  returns 0x0000000D (0000ms, 0504ms total)
T4524 1284:540 JLINK_Go() (0003ms, 0507ms total)
T4524 1284:543 JLINK_IsHalted() -- CPU_ReadMem(2 bytes @ 0x20000000)  returns TRUE (0003ms, 0510ms total)
T4524 1284:546 JLINK_ReadReg(R15)  returns 0x20000000 (0000ms, 0507ms total)
T4524 1284:546 JLINK_ClrBPEx(BPHandle = 0x0000000D)  returns 0x00 (0000ms, 0507ms total)
T4524 1284:546 JLINK_ReadReg(R0)  returns 0x00000000 (0000ms, 0507ms total)
T4524 1284:609 JLINK_WriteMem(0x20000000, 0x0164 Bytes, ...) -- Data:  00 BE 0A E0 0D 78 2D 06 68 40 08 24 40 00 00 D3 ... -- CPU_WriteMem(356 bytes @ 0x20000000)  returns 0x164 (0005ms, 0512ms total)
T4524 1284:614 JLINK_WriteReg(R0, 0x08000000)  returns 0x00 (0000ms, 0512ms total)
T4524 1284:614 JLINK_WriteReg(R1, 0x00B71B00)  returns 0x00 (0000ms, 0512ms total)
T4524 1284:614 JLINK_WriteReg(R2, 0x00000003)  returns 0x00 (0000ms, 0512ms total)
T4524 1284:614 JLINK_WriteReg(R3, 0x00000000)  returns 0x00 (0000ms, 0512ms total)
T4524 1284:614 JLINK_WriteReg(R4, 0x00000000)  returns 0x00 (0000ms, 0512ms total)
T4524 1284:614 JLINK_WriteReg(R5, 0x00000000)  returns 0x00 (0000ms, 0512ms total)
T4524 1284:614 JLINK_WriteReg(R6, 0x00000000)  returns 0x00 (0000ms, 0512ms total)
T4524 1284:614 JLINK_WriteReg(R7, 0x00000000)  returns 0x00 (0000ms, 0512ms total)
T4524 1284:614 JLINK_WriteReg(R8, 0x00000000)  returns 0x00 (0000ms, 0512ms total)
T4524 1284:614 JLINK_WriteReg(R9, 0x20000160)  returns 0x00 (0000ms, 0512ms total)
T4524 1284:614 JLINK_WriteReg(R10, 0x00000000)  returns 0x00 (0000ms, 0512ms total)
T4524 1284:614 JLINK_WriteReg(R11, 0x00000000)  returns 0x00 (0001ms, 0513ms total)
T4524 1284:615 JLINK_WriteReg(R12, 0x00000000)  returns 0x00 (0000ms, 0513ms total)
T4524 1284:615 JLINK_WriteReg(R13, 0x20001000)  returns 0x00 (0000ms, 0513ms total)
T4524 1284:615 JLINK_WriteReg(R14, 0x20000001)  returns 0x00 (0000ms, 0513ms total)
T4524 1284:615 JLINK_WriteReg(R15, 0x20000038)  returns 0x00 (0000ms, 0513ms total)
T4524 1284:615 JLINK_WriteReg(XPSR, 0x01000000)  returns 0x00 (0000ms, 0513ms total)
T4524 1284:615 JLINK_WriteReg(MSP, 0x20001000)  returns 0x00 (0000ms, 0513ms total)
T4524 1284:615 JLINK_WriteReg(PSP, 0x20001000)  returns 0x00 (0000ms, 0513ms total)
T4524 1284:615 JLINK_WriteReg(CFBP, 0x00000000)  returns 0x00 (0000ms, 0513ms total)
T4524 1284:615 JLINK_SetBPEx(Addr = 0x20000000, Type = 0xFFFFFFF2) -- CPU_ReadMem(2 bytes @ 0x20000000)  returns 0x0000000E (0001ms, 0514ms total)
T4524 1284:616 JLINK_Go() -- CPU_WriteMem(2 bytes @ 0x20000000) (0002ms, 0516ms total)
T4524 1284:618 JLINK_IsHalted() -- CPU_ReadMem(2 bytes @ 0x20000000)  returns TRUE (0004ms, 0520ms total)
T4524 1284:622 JLINK_ReadReg(R15)  returns 0x20000000 (0000ms, 0516ms total)
T4524 1284:622 JLINK_ClrBPEx(BPHandle = 0x0000000E)  returns 0x00 (0000ms, 0516ms total)
T4524 1284:622 JLINK_ReadReg(R0)  returns 0x00000000 (0000ms, 0516ms total)
T4524 1284:622 JLINK_WriteReg(R0, 0xFFFFFFFF)  returns 0x00 (0000ms, 0516ms total)
T4524 1284:622 JLINK_WriteReg(R1, 0x08000000)  returns 0x00 (0000ms, 0516ms total)
T4524 1284:622 JLINK_WriteReg(R2, 0x000009D0)  returns 0x00 (0000ms, 0516ms total)
T4524 1284:622 JLINK_WriteReg(R3, 0x04C11DB7)  returns 0x00 (0000ms, 0516ms total)
T4524 1284:622 JLINK_WriteReg(R4, 0x00000000)  returns 0x00 (0000ms, 0516ms total)
T4524 1284:622 JLINK_WriteReg(R5, 0x00000000)  returns 0x00 (0000ms, 0516ms total)
T4524 1284:622 JLINK_WriteReg(R6, 0x00000000)  returns 0x00 (0000ms, 0516ms total)
T4524 1284:622 JLINK_WriteReg(R7, 0x00000000)  returns 0x00 (0000ms, 0516ms total)
T4524 1284:622 JLINK_WriteReg(R8, 0x00000000)  returns 0x00 (0000ms, 0516ms total)
T4524 1284:622 JLINK_WriteReg(R9, 0x20000160)  returns 0x00 (0000ms, 0516ms total)
T4524 1284:622 JLINK_WriteReg(R10, 0x00000000)  returns 0x00 (0000ms, 0516ms total)
T4524 1284:622 JLINK_WriteReg(R11, 0x00000000)  returns 0x00 (0000ms, 0516ms total)
T4524 1284:622 JLINK_WriteReg(R12, 0x00000000)  returns 0x00 (0000ms, 0516ms total)
T4524 1284:622 JLINK_WriteReg(R13, 0x20001000)  returns 0x00 (0000ms, 0516ms total)
T4524 1284:622 JLINK_WriteReg(R14, 0x20000001)  returns 0x00 (0000ms, 0516ms total)
T4524 1284:622 JLINK_WriteReg(R15, 0x20000002)  returns 0x00 (0000ms, 0516ms total)
T4524 1284:622 JLINK_WriteReg(XPSR, 0x01000000)  returns 0x00 (0000ms, 0516ms total)
T4524 1284:622 JLINK_WriteReg(MSP, 0x20001000)  returns 0x00 (0000ms, 0516ms total)
T4524 1284:622 JLINK_WriteReg(PSP, 0x20001000)  returns 0x00 (0000ms, 0516ms total)
T4524 1284:622 JLINK_WriteReg(CFBP, 0x00000000)  returns 0x00 (0000ms, 0516ms total)
T4524 1284:622 JLINK_SetBPEx(Addr = 0x20000000, Type = 0xFFFFFFF2)  returns 0x0000000F (0000ms, 0516ms total)
T4524 1284:622 JLINK_Go() (0002ms, 0518ms total)
T4524 1284:624 JLINK_IsHalted()  returns FALSE (0000ms, 0518ms total)
T4524 1284:630 JLINK_IsHalted()  returns FALSE (0000ms, 0518ms total)
T4524 1284:633 JLINK_IsHalted()  returns FALSE (0000ms, 0518ms total)
T4524 1284:635 JLINK_IsHalted()  returns FALSE (0001ms, 0519ms total)
T4524 1284:638 JLINK_IsHalted()  returns FALSE (0000ms, 0518ms total)
T4524 1284:641 JLINK_IsHalted()  returns FALSE (0000ms, 0518ms total)
T4524 1284:643 JLINK_IsHalted()  returns FALSE (0001ms, 0519ms total)
T4524 1284:646 JLINK_IsHalted()  returns FALSE (0000ms, 0518ms total)
T4524 1284:648 JLINK_IsHalted()  returns FALSE (0000ms, 0518ms total)
T4524 1284:650 JLINK_IsHalted()  returns FALSE (0000ms, 0518ms total)
T4524 1284:652 JLINK_IsHalted()  returns FALSE (0001ms, 0519ms total)
T4524 1284:655 JLINK_IsHalted()  returns FALSE (0000ms, 0518ms total)
T4524 1284:657 JLINK_IsHalted()  returns FALSE (0001ms, 0519ms total)
T4524 1284:660 JLINK_IsHalted()  returns FALSE (0000ms, 0518ms total)
T4524 1284:662 JLINK_IsHalted()  returns FALSE (0001ms, 0519ms total)
T4524 1284:665 JLINK_IsHalted()  returns FALSE (0000ms, 0518ms total)
T4524 1284:667 JLINK_IsHalted() -- CPU_ReadMem(2 bytes @ 0x20000000)  returns TRUE (0004ms, 0522ms total)
T4524 1284:671 JLINK_ReadReg(R15)  returns 0x20000000 (0000ms, 0518ms total)
